Circuit: * C:\Users\LostWolf\Desktop\331lab\lab1\lab1_nmos.asc

Model "ald1101": Oxide thickness thinner than recommended for a level 2 MOSFET.
Instance "m1": Length shorter than recommended for a level 2 MOSFET.
Direct Newton iteration for .op point succeeded.
Semiconductor Device Operating Points:
                        --- MOSFET Transistors ---
Name:          m1
Model:       ald1101
Id:          1.05e-03
Vgs:         1.38e+00
Vds:         2.73e+00
Vbs:         0.00e+00
Vth:         7.13e-01
Vdsat:       4.55e-01
Gm:          2.99e-03
Gds:         1.29e-05
Gmb:         1.42e-03
Cbd:         0.00e+00
Cbs:         0.00e+00
Cgsov:       1.59e-12
Cgdov:       1.59e-12
Cgbov:       0.00e+00
Cgs:         3.17e-12
Cgd:         0.00e+00
Cgb:         0.00e+00



Date: Wed Oct 07 21:41:39 2015
Total elapsed time: 0.070 seconds.

tnom = 27
temp = 27
method = trap
totiter = 4
traniter = 0
tranpoints = 0
accept = 0
rejected = 0
matrix size = 7
fillins = 0
solver = Normal
Matrix Compiler1: 232 bytes object code size
Matrix Compiler2: 481 bytes object code size

