Circuit: * C:\Users\LostWolf\Desktop\331lab\lab1\lab1_pmos.asc

WARNING: Node N002 is floating.

Model "ald1102": Oxide thickness thinner than recommended for a level 2 MOSFET.
Instance "m1": Length shorter than recommended for a level 2 MOSFET.
Direct Newton iteration for .op point succeeded.
Semiconductor Device Operating Points:
                        --- MOSFET Transistors ---
Name:          m1
Model:       ald1102
Id:         -6.34e-04
Vgs:        -1.34e+00
Vds:        -2.27e+00
Vbs:        -1.74e-01
Vth:        -7.17e-01
Vdsat:      -4.88e-01
Gm:          1.57e-03
Gds:         3.49e-05
Gmb:         6.77e-04
Cbd:         0.00e+00
Cbs:         0.00e+00
Cgsov:       2.00e-12
Cgdov:       2.00e-12
Cgbov:       0.00e+00
Cgs:         4.00e-12
Cgd:         0.00e+00
Cgb:         0.00e+00



Date: Wed Oct 07 21:39:57 2015
Total elapsed time: 0.090 seconds.

tnom = 27
temp = 27
method = trap
totiter = 25
traniter = 0
tranpoints = 0
accept = 0
rejected = 0
matrix size = 8
fillins = 0
solver = Normal
Matrix Compiler1: 380 bytes object code size
Matrix Compiler2: 622 bytes object code size

